T0A1C 000:003.667   SEGGER J-Link V9.14a Log File
T0A1C 000:003.857   DLL Compiled: Jan 28 2026 17:11:52
T0A1C 000:003.880   Logging started @ 2026-03-04 07:08
T0A1C 000:003.903   Process: C:\Users\a5137244\.eclipse\com.renesas.platform_1249348479\DebugComp\RA\e2-server-gdb.exe
T0A1C 000:003.962 - 3.956ms 
T0A1C 000:004.008 JLINK_GetDLLVersion()
T0A1C 000:004.027 - 0.019ms returns 91401
T0A1C 000:011.523 JLINK_OpenEx(...)
T0A1C 000:026.649   Firmware: J-Link OB-RA4M2 compiled Dec 10 2025 15:52:53
T0A1C 000:028.654   Firmware: J-Link OB-RA4M2 compiled Dec 10 2025 15:52:53
T0A1C 000:044.618   Hardware: V1.00
T0A1C 000:044.713   S/N: 1083445785
T0A1C 000:044.751   OEM: SEGGER
T0A1C 000:044.797   Feature(s): None
T0A1C 000:046.339   Bootloader: 2021 May 14
T0A1C 000:047.413   USB speed mode: Full speed (12 MBit/s)
T0A1C 000:048.481   TELNET listener socket opened on port 19021
T0A1C 000:049.017   WEBSRV WEBSRV_Init(): Starting webserver thread(s)
T0A1C 000:049.416   WEBSRV Webserver running on local port 19080
T0A1C 000:049.764   Looking for J-Link GUI Server exe at: C:\Users\a5137244\.eclipse\com.renesas.platform_1249348479\DebugComp\RA\ARM\Segger_v9.14.1\JLinkGUIServer.exe
T0A1C 000:050.018   Looking for J-Link GUI Server exe at: C:\Users\a5137244\SEGGER\JLink_V818\JLinkGUIServer.exe
T0A1C 000:357.585   Failed to connect to J-Link GUI Server.
T0A1C 000:357.699 - 346.168ms returns "O.K."
T0A1C 000:358.100 JLINK_TIF_Select(JLINKARM_TIF_SWD)
T0A1C 000:361.141 - 3.039ms returns 0x00
T0A1C 000:361.281 JLINK_ClrRESET()
T0A1C 000:361.988 - 0.705ms 
T0A1C 000:412.328 JLINK_SetSpeed(1500)
T0A1C 000:412.744 - 0.422ms 
T0A1C 000:412.791 JLINK_CORESIGHT_Configure(PerformTIFInit=0)
T0A1C 000:413.420 - 0.631ms returns 0
T0A1C 000:413.473 JLINK_CORESIGHT_ReadAPDPReg(DP reg 0x00)
T0A1C 000:414.152   Value=0x6BA02477
T0A1C 000:414.197 - 0.725ms returns 0
T0A1C 000:414.227 JLINK_CORESIGHT_WriteAPDPReg(DP reg 0x00, 0x0000001F)
T0A1C 000:414.657 - 0.430ms returns 0
T0A1C 000:414.701 JLINK_CORESIGHT_ReadAPDPReg(DP reg 0x00)
T0A1C 000:415.242   Value=0x6BA02477
T0A1C 000:415.305 - 0.604ms returns 0
T0A1C 000:415.329 JLINK_CORESIGHT_WriteAPDPReg(DP reg 0x02, 0x00000000)
T0A1C 000:415.717 - 0.388ms returns 0
T0A1C 000:415.769 JLINK_CORESIGHT_WriteAPDPReg(DP reg 0x01, 0x50000000)
T0A1C 000:416.343 - 0.574ms returns 0
T0A1C 000:416.406 JLINK_CORESIGHT_ReadAPDPReg(DP reg 0x01)
T0A1C 000:416.790   Value=0xF0000000
T0A1C 000:416.838 - 0.432ms returns 0
T0A1C 000:416.862 JLINK_CORESIGHT_WriteAPDPReg(DP reg 0x00, 0x0000001F)
T0A1C 000:417.265 - 0.402ms returns 0
T0A1C 000:417.314 JLINK_CORESIGHT_ReadAPDPReg(DP reg 0x00)
T0A1C 000:417.855   Value=0x6BA02477
T0A1C 000:417.899 - 0.584ms returns 0
T0A1C 000:417.921 JLINK_CORESIGHT_WriteAPDPReg(DP reg 0x01, 0x54000000)
T0A1C 000:418.403 - 0.481ms returns 0
T0A1C 000:418.481 JLINK_CORESIGHT_WriteAPDPReg(DP reg 0x01, 0x50000F00)
T0A1C 000:418.865 - 0.384ms returns 0
T0A1C 000:418.912 JLINK_CORESIGHT_WriteAPDPReg(DP reg 0x02, 0x01000000)
T0A1C 000:421.322 - 2.410ms returns 0
T0A1C 000:421.372 JLINK_CORESIGHT_WriteAPDPReg(AP reg 0x00, 0x80000002)
T0A1C 000:422.062 - 0.690ms returns 0
T0A1C 000:422.129 JLINK_CORESIGHT_WriteAPDPReg(AP reg 0x01, 0x80011100)
T0A1C 000:422.736 - 0.606ms returns 0
T0A1C 000:422.781 JLINK_CORESIGHT_WriteAPDPReg(AP reg 0x03, 0x000000A5)
T0A1C 000:423.163 - 0.382ms returns 0
T0A1C 000:423.217 JLINK_CORESIGHT_WriteAPDPReg(AP reg 0x00, 0x80000002)
T0A1C 000:423.636 - 0.419ms returns 0
T0A1C 000:423.686 JLINK_CORESIGHT_WriteAPDPReg(AP reg 0x01, 0x80011100)
T0A1C 000:424.249 - 0.562ms returns 0
T0A1C 000:424.294 JLINK_CORESIGHT_ReadAPDPReg(AP reg 0x03)
T0A1C 000:424.786   Value=0x000000A5
T0A1C 000:424.831 - 0.537ms returns 0
T0A1C 000:424.854 JLINK_ClrTMS()
T0A1C 000:425.125 - 0.270ms 
T0A1C 000:430.334 JLINK_SetTCK()
T0A1C 000:430.678 - 0.343ms returns 0
T0A1C 000:436.257 JLINK_SetRESET()
T0A1C 000:436.556 - 0.297ms 
T0A1C 000:637.526 JLINK_CORESIGHT_WriteAPDPReg(AP reg 0x00, 0x80000002)
T0A1C 000:639.506 - 1.981ms returns 0
T0A1C 000:639.769 JLINK_CORESIGHT_WriteAPDPReg(AP reg 0x01, 0x80011100)
T0A1C 000:640.173 - 0.404ms returns 0
T0A1C 000:640.250 JLINK_CORESIGHT_ReadAPDPReg(AP reg 0x03)
T0A1C 000:640.594   Value=0x00000000
T0A1C 000:640.650 - 0.400ms returns 0
T0A1C 000:640.684 JLINK_CORESIGHT_WriteAPDPReg(AP reg 0x00, 0x80000002)
T0A1C 000:641.089 - 0.404ms returns 0
T0A1C 000:641.193 JLINK_CORESIGHT_WriteAPDPReg(AP reg 0x01, 0x80011140)
T0A1C 000:641.525 - 0.331ms returns 0
T0A1C 000:641.582 JLINK_CORESIGHT_ReadAPDPReg(AP reg 0x03)
T0A1C 000:643.772   Value=0x00000002
T0A1C 000:643.849 - 2.266ms returns 0
T0A1C 000:643.896 JLINK_CORESIGHT_WriteAPDPReg(AP reg 0x00, 0x80000002)
T0A1C 000:644.312 - 0.415ms returns 0
T0A1C 000:644.390 JLINK_CORESIGHT_WriteAPDPReg(AP reg 0x01, 0x80011120)
T0A1C 000:644.777 - 0.387ms returns 0
T0A1C 000:644.827 JLINK_CORESIGHT_WriteAPDPReg(AP reg 0x03, 0x00000055)
T0A1C 000:645.307 - 0.480ms returns 0
T0A1C 000:645.347 JLINK_CORESIGHT_WriteAPDPReg(AP reg 0x00, 0x80000002)
T0A1C 000:645.737 - 0.389ms returns 0
T0A1C 000:645.781 JLINK_CORESIGHT_WriteAPDPReg(AP reg 0x01, 0x80011140)
T0A1C 000:647.787 - 2.005ms returns 0
T0A1C 000:647.931 JLINK_CORESIGHT_ReadAPDPReg(AP reg 0x03)
T0A1C 000:648.481   Value=0x00000002
T0A1C 000:648.537 - 0.607ms returns 0
T0A1C 000:648.559 JLINK_CORESIGHT_ReadAPDPReg(AP reg 0x03)
T0A1C 000:648.949   Value=0x00000002
T0A1C 000:648.999 - 0.439ms returns 0
T0A1C 000:649.020 JLINK_CORESIGHT_ReadAPDPReg(AP reg 0x03)
T0A1C 000:649.360   Value=0x00000002
T0A1C 000:649.422 - 0.401ms returns 0
T0A1C 000:649.458 JLINK_CORESIGHT_ReadAPDPReg(AP reg 0x03)
T0A1C 000:649.973   Value=0x00000002
T0A1C 000:650.022 - 0.564ms returns 0
T0A1C 000:650.042 JLINK_CORESIGHT_ReadAPDPReg(AP reg 0x03)
T0A1C 000:650.415   Value=0x00000002
T0A1C 000:650.492 - 0.437ms returns 0
T0A1C 000:650.513 JLINK_CORESIGHT_ReadAPDPReg(AP reg 0x03)
T0A1C 000:650.960   Value=0x00000002
T0A1C 000:651.028 - 0.514ms returns 0
T0A1C 000:651.050 JLINK_CORESIGHT_ReadAPDPReg(AP reg 0x03)
T0A1C 000:651.378   Value=0x00000002
T0A1C 000:651.449 - 0.398ms returns 0
T0A1C 000:651.481 JLINK_CORESIGHT_ReadAPDPReg(AP reg 0x03)
T0A1C 000:652.000   Value=0x00000002
T0A1C 000:652.055 - 0.573ms returns 0
T0A1C 000:652.077 JLINK_CORESIGHT_ReadAPDPReg(AP reg 0x03)
T0A1C 000:652.576   Value=0x00000002
T0A1C 000:652.630 - 0.552ms returns 0
T0A1C 000:652.652 JLINK_CORESIGHT_ReadAPDPReg(AP reg 0x03)
T0A1C 000:653.072   Value=0x00000002
T0A1C 000:653.120 - 0.467ms returns 0
T0A1C 000:653.141 JLINK_CORESIGHT_ReadAPDPReg(AP reg 0x03)
T0A1C 000:653.595   Value=0x00000002
T0A1C 000:653.659 - 0.517ms returns 0
T0A1C 000:653.681 JLINK_CORESIGHT_ReadAPDPReg(AP reg 0x03)
T0A1C 000:654.184   Value=0x00000002
T0A1C 000:654.237 - 0.555ms returns 0
T0A1C 000:654.269 JLINK_CORESIGHT_ReadAPDPReg(AP reg 0x03)
T0A1C 000:654.731   Value=0x00000002
T0A1C 000:654.869 - 0.598ms returns 0
T0A1C 000:654.902 JLINK_CORESIGHT_ReadAPDPReg(AP reg 0x03)
T0A1C 000:655.235   Value=0x00000002
T0A1C 000:655.272 - 0.369ms returns 0
T0A1C 000:655.295 JLINK_CORESIGHT_ReadAPDPReg(AP reg 0x03)
T0A1C 000:655.588   Value=0x00000002
T0A1C 000:655.627 - 0.332ms returns 0
T0A1C 000:655.652 JLINK_CORESIGHT_ReadAPDPReg(AP reg 0x03)
T0A1C 000:655.992   Value=0x00000002
T0A1C 000:656.137 - 0.484ms returns 0
T0A1C 000:656.183 JLINK_CORESIGHT_ReadAPDPReg(AP reg 0x03)
T0A1C 000:656.728   Value=0x00000002
T0A1C 000:656.784 - 0.600ms returns 0
T0A1C 000:656.811 JLINK_CORESIGHT_ReadAPDPReg(AP reg 0x03)
T0A1C 000:657.282   Value=0x00000000
T0A1C 000:657.333 - 0.522ms returns 0
T0A1C 000:657.359 JLINK_CORESIGHT_WriteAPDPReg(AP reg 0x00, 0x80000002)
T0A1C 000:657.628 - 0.269ms returns 0
T0A1C 000:657.677 JLINK_CORESIGHT_WriteAPDPReg(AP reg 0x01, 0x80011130)
T0A1C 000:659.788 - 2.111ms returns 0
T0A1C 000:659.845 JLINK_CORESIGHT_ReadAPDPReg(AP reg 0x03)
T0A1C 000:660.271   Value=0x000000C6
T0A1C 000:660.332 - 0.486ms returns 0
T0A1C 000:661.378 JLINK_CORESIGHT_WriteAPDPReg(AP reg 0x00, 0x80000002)
T0A1C 000:661.797 - 0.419ms returns 0
T0A1C 000:661.852 JLINK_CORESIGHT_WriteAPDPReg(AP reg 0x01, 0x80011140)
T0A1C 000:662.155 - 0.302ms returns 0
T0A1C 000:662.214 JLINK_CORESIGHT_ReadAPDPReg(AP reg 0x03)
T0A1C 000:662.585   Value=0x00000002
T0A1C 000:662.654 - 0.440ms returns 0
T0A1C 000:662.693 JLINK_CORESIGHT_WriteAPDPReg(AP reg 0x00, 0x80000002)
T0A1C 000:663.105 - 0.411ms returns 0
T0A1C 000:663.156 JLINK_CORESIGHT_WriteAPDPReg(AP reg 0x01, 0x80011120)
T0A1C 000:663.504 - 0.348ms returns 0
T0A1C 000:663.560 JLINK_CORESIGHT_WriteAPDPReg(AP reg 0x03, 0x3A010001)
T0A1C 000:663.995 - 0.435ms returns 0
T0A1C 000:664.045 JLINK_CORESIGHT_WriteAPDPReg(AP reg 0x00, 0x80000002)
T0A1C 000:664.412 - 0.367ms returns 0
T0A1C 000:664.469 JLINK_CORESIGHT_WriteAPDPReg(AP reg 0x01, 0x80011140)
T0A1C 000:664.802 - 0.333ms returns 0
T0A1C 000:664.847 JLINK_CORESIGHT_ReadAPDPReg(AP reg 0x03)
T0A1C 000:665.158   Value=0x00000002
T0A1C 000:665.202 - 0.354ms returns 0
T0A1C 000:665.224 JLINK_CORESIGHT_WriteAPDPReg(AP reg 0x00, 0x80000002)
T0A1C 000:665.511 - 0.287ms returns 0
T0A1C 000:665.559 JLINK_CORESIGHT_WriteAPDPReg(AP reg 0x01, 0x80011120)
T0A1C 000:666.019 - 0.459ms returns 0
T0A1C 000:666.063 JLINK_CORESIGHT_WriteAPDPReg(AP reg 0x03, 0x000003C5)
T0A1C 000:666.437 - 0.374ms returns 0
T0A1C 000:666.486 JLINK_CORESIGHT_WriteAPDPReg(AP reg 0x00, 0x80000002)
T0A1C 000:666.935 - 0.449ms returns 0
T0A1C 000:666.977 JLINK_CORESIGHT_WriteAPDPReg(AP reg 0x01, 0x80011140)
T0A1C 000:667.298 - 0.320ms returns 0
T0A1C 000:667.340 JLINK_CORESIGHT_ReadAPDPReg(AP reg 0x03)
T0A1C 000:667.795   Value=0x00000002
T0A1C 000:667.849 - 0.509ms returns 0
T0A1C 000:667.871 JLINK_CORESIGHT_ReadAPDPReg(AP reg 0x03)
T0A1C 000:668.245   Value=0x00000000
T0A1C 000:668.295 - 0.423ms returns 0
T0A1C 000:668.316 JLINK_CORESIGHT_WriteAPDPReg(AP reg 0x00, 0x80000002)
T0A1C 000:668.630 - 0.314ms returns 0
T0A1C 000:668.674 JLINK_CORESIGHT_WriteAPDPReg(AP reg 0x01, 0x80011130)
T0A1C 000:668.984 - 0.309ms returns 0
T0A1C 000:669.026 JLINK_CORESIGHT_ReadAPDPReg(AP reg 0x03)
T0A1C 000:669.354   Value=0x3A2A0081
T0A1C 000:669.387 - 0.361ms returns 0
T0A1C 000:669.407 JLINK_CORESIGHT_WriteAPDPReg(AP reg 0x00, 0x80000002)
T0A1C 000:669.680 - 0.272ms returns 0
T0A1C 000:669.721 JLINK_CORESIGHT_WriteAPDPReg(AP reg 0x01, 0x80011140)
T0A1C 000:670.071 - 0.349ms returns 0
T0A1C 000:670.129 JLINK_CORESIGHT_ReadAPDPReg(AP reg 0x03)
T0A1C 000:670.542   Value=0x00000000
T0A1C 000:670.613 - 0.484ms returns 0
T0A1C 000:670.642 JLINK_CORESIGHT_WriteAPDPReg(AP reg 0x00, 0x80000002)
T0A1C 000:670.958 - 0.316ms returns 0
T0A1C 000:671.008 JLINK_CORESIGHT_WriteAPDPReg(AP reg 0x01, 0x80011130)
T0A1C 000:671.279 - 0.271ms returns 0
T0A1C 000:671.320 JLINK_CORESIGHT_ReadAPDPReg(AP reg 0x03)
T0A1C 000:671.669   Value=0x808D5B00
T0A1C 000:671.707 - 0.387ms returns 0
T0A1C 000:671.728 JLINK_CORESIGHT_WriteAPDPReg(AP reg 0x00, 0x80000002)
T0A1C 000:672.052 - 0.323ms returns 0
T0A1C 000:672.103 JLINK_CORESIGHT_WriteAPDPReg(AP reg 0x01, 0x80011140)
T0A1C 000:672.574 - 0.470ms returns 0
T0A1C 000:672.622 JLINK_CORESIGHT_ReadAPDPReg(AP reg 0x03)
T0A1C 000:673.176   Value=0x00000000
T0A1C 000:673.227 - 0.605ms returns 0
T0A1C 000:673.249 JLINK_CORESIGHT_WriteAPDPReg(AP reg 0x00, 0x80000002)
T0A1C 000:673.598 - 0.349ms returns 0
T0A1C 000:673.628 JLINK_CORESIGHT_WriteAPDPReg(AP reg 0x01, 0x80011130)
T0A1C 000:674.003 - 0.375ms returns 0
T0A1C 000:674.026 JLINK_CORESIGHT_ReadAPDPReg(AP reg 0x03)
T0A1C 000:674.478   Value=0x0406070A
T0A1C 000:674.508 - 0.482ms returns 0
T0A1C 000:674.531 JLINK_CORESIGHT_WriteAPDPReg(AP reg 0x00, 0x80000002)
T0A1C 000:674.991 - 0.460ms returns 0
T0A1C 000:675.016 JLINK_CORESIGHT_WriteAPDPReg(AP reg 0x01, 0x80011140)
T0A1C 000:675.336 - 0.320ms returns 0
T0A1C 000:675.361 JLINK_CORESIGHT_ReadAPDPReg(AP reg 0x03)
T0A1C 000:675.817   Value=0x00000000
T0A1C 000:675.849 - 0.488ms returns 0
T0A1C 000:675.872 JLINK_CORESIGHT_WriteAPDPReg(AP reg 0x00, 0x80000002)
T0A1C 000:676.294 - 0.421ms returns 0
T0A1C 000:676.321 JLINK_CORESIGHT_WriteAPDPReg(AP reg 0x01, 0x80011130)
T0A1C 000:676.676 - 0.355ms returns 0
T0A1C 000:676.704 JLINK_CORESIGHT_ReadAPDPReg(AP reg 0x03)
T0A1C 000:677.084   Value=0x3154540B
T0A1C 000:677.129 - 0.425ms returns 0
T0A1C 000:677.150 JLINK_CORESIGHT_WriteAPDPReg(AP reg 0x00, 0x80000002)
T0A1C 000:677.491 - 0.341ms returns 0
T0A1C 000:677.529 JLINK_CORESIGHT_WriteAPDPReg(AP reg 0x01, 0x80011140)
T0A1C 000:677.823 - 0.293ms returns 0
T0A1C 000:677.860 JLINK_CORESIGHT_ReadAPDPReg(AP reg 0x03)
T0A1C 000:678.260   Value=0x00000000
T0A1C 000:678.346 - 0.485ms returns 0
T0A1C 000:678.378 JLINK_CORESIGHT_WriteAPDPReg(AP reg 0x00, 0x80000002)
T0A1C 000:678.725 - 0.347ms returns 0
T0A1C 000:678.779 JLINK_CORESIGHT_WriteAPDPReg(AP reg 0x01, 0x80011130)
T0A1C 000:679.205 - 0.426ms returns 0
T0A1C 000:679.253 JLINK_CORESIGHT_ReadAPDPReg(AP reg 0x03)
T0A1C 000:679.715   Value=0x54D8C877
T0A1C 000:679.781 - 0.528ms returns 0
T0A1C 000:679.813 JLINK_CORESIGHT_WriteAPDPReg(AP reg 0x00, 0x80000002)
T0A1C 000:680.214 - 0.401ms returns 0
T0A1C 000:680.257 JLINK_CORESIGHT_WriteAPDPReg(AP reg 0x01, 0x80011140)
T0A1C 000:680.520 - 0.262ms returns 0
T0A1C 000:680.561 JLINK_CORESIGHT_ReadAPDPReg(AP reg 0x03)
T0A1C 000:680.927   Value=0x00000000
T0A1C 000:680.962 - 0.400ms returns 0
T0A1C 000:680.982 JLINK_CORESIGHT_WriteAPDPReg(AP reg 0x00, 0x80000002)
T0A1C 000:681.312 - 0.330ms returns 0
T0A1C 000:681.351 JLINK_CORESIGHT_WriteAPDPReg(AP reg 0x01, 0x80011130)
T0A1C 000:681.686 - 0.335ms returns 0
T0A1C 000:681.711 JLINK_CORESIGHT_ReadAPDPReg(AP reg 0x03)
T0A1C 000:682.098   Value=0x37395636
T0A1C 000:682.130 - 0.419ms returns 0
T0A1C 000:682.151 JLINK_CORESIGHT_WriteAPDPReg(AP reg 0x00, 0x80000002)
T0A1C 000:682.464 - 0.313ms returns 0
T0A1C 000:682.514 JLINK_CORESIGHT_WriteAPDPReg(AP reg 0x01, 0x80011140)
T0A1C 000:682.837 - 0.322ms returns 0
T0A1C 000:682.884 JLINK_CORESIGHT_ReadAPDPReg(AP reg 0x03)
T0A1C 000:683.259   Value=0x00000000
T0A1C 000:683.307 - 0.422ms returns 0
T0A1C 000:683.328 JLINK_CORESIGHT_WriteAPDPReg(AP reg 0x00, 0x80000002)
T0A1C 000:683.607 - 0.279ms returns 0
T0A1C 000:683.649 JLINK_CORESIGHT_WriteAPDPReg(AP reg 0x01, 0x80011130)
T0A1C 000:683.981 - 0.331ms returns 0
T0A1C 000:684.023 JLINK_CORESIGHT_ReadAPDPReg(AP reg 0x03)
T0A1C 000:684.395   Value=0x70012D34
T0A1C 000:684.444 - 0.420ms returns 0
T0A1C 000:684.464 JLINK_CORESIGHT_WriteAPDPReg(AP reg 0x00, 0x80000002)
T0A1C 000:684.852 - 0.382ms returns 0
T0A1C 000:684.903 JLINK_CORESIGHT_WriteAPDPReg(AP reg 0x01, 0x80011140)
T0A1C 000:685.229 - 0.326ms returns 0
T0A1C 000:685.266 JLINK_CORESIGHT_ReadAPDPReg(AP reg 0x03)
T0A1C 000:685.694   Value=0x00000000
T0A1C 000:685.748 - 0.482ms returns 0
T0A1C 000:685.780 JLINK_CORESIGHT_WriteAPDPReg(AP reg 0x00, 0x80000002)
T0A1C 000:686.183 - 0.401ms returns 0
T0A1C 000:686.277 JLINK_CORESIGHT_WriteAPDPReg(AP reg 0x01, 0x80011130)
T0A1C 000:686.659 - 0.381ms returns 0
T0A1C 000:686.714 JLINK_CORESIGHT_ReadAPDPReg(AP reg 0x03)
T0A1C 000:687.112   Value=0x4B375285
T0A1C 000:687.182 - 0.467ms returns 0
T0A1C 000:687.220 JLINK_CORESIGHT_WriteAPDPReg(AP reg 0x00, 0x80000002)
T0A1C 000:687.612 - 0.392ms returns 0
T0A1C 000:687.664 JLINK_CORESIGHT_WriteAPDPReg(AP reg 0x01, 0x80011140)
T0A1C 000:688.118 - 0.454ms returns 0
T0A1C 000:688.175 JLINK_CORESIGHT_ReadAPDPReg(AP reg 0x03)
T0A1C 000:688.618   Value=0x00000000
T0A1C 000:688.680 - 0.505ms returns 0
T0A1C 000:688.717 JLINK_CORESIGHT_WriteAPDPReg(AP reg 0x00, 0x80000002)
T0A1C 000:689.124 - 0.407ms returns 0
T0A1C 000:689.191 JLINK_CORESIGHT_WriteAPDPReg(AP reg 0x01, 0x80011130)
T0A1C 000:689.534 - 0.342ms returns 0
T0A1C 000:689.608 JLINK_CORESIGHT_ReadAPDPReg(AP reg 0x03)
T0A1C 000:689.974   Value=0x32543841
T0A1C 000:690.032 - 0.424ms returns 0
T0A1C 000:690.068 JLINK_CORESIGHT_WriteAPDPReg(AP reg 0x00, 0x80000002)
T0A1C 000:690.351 - 0.282ms returns 0
T0A1C 000:690.398 JLINK_CORESIGHT_WriteAPDPReg(AP reg 0x01, 0x80011140)
T0A1C 000:690.678 - 0.279ms returns 0
T0A1C 000:690.728 JLINK_CORESIGHT_ReadAPDPReg(AP reg 0x03)
T0A1C 000:691.164   Value=0x00000000
T0A1C 000:691.214 - 0.486ms returns 0
T0A1C 000:691.241 JLINK_CORESIGHT_WriteAPDPReg(AP reg 0x00, 0x80000002)
T0A1C 000:691.514 - 0.272ms returns 0
T0A1C 000:691.570 JLINK_CORESIGHT_WriteAPDPReg(AP reg 0x01, 0x80011130)
T0A1C 000:691.875 - 0.304ms returns 0
T0A1C 000:691.922 JLINK_CORESIGHT_ReadAPDPReg(AP reg 0x03)
T0A1C 000:692.351   Value=0x434C464C
T0A1C 000:692.401 - 0.479ms returns 0
T0A1C 000:692.428 JLINK_CORESIGHT_WriteAPDPReg(AP reg 0x00, 0x80000002)
T0A1C 000:692.775 - 0.346ms returns 0
T0A1C 000:692.874 JLINK_CORESIGHT_WriteAPDPReg(AP reg 0x01, 0x80011140)
T0A1C 000:693.284 - 0.409ms returns 0
T0A1C 000:693.329 JLINK_CORESIGHT_ReadAPDPReg(AP reg 0x03)
T0A1C 000:693.776   Value=0x00000000
T0A1C 000:693.867 - 0.537ms returns 0
T0A1C 000:693.923 JLINK_CORESIGHT_WriteAPDPReg(AP reg 0x00, 0x80000002)
T0A1C 000:694.354 - 0.430ms returns 0
T0A1C 000:694.426 JLINK_CORESIGHT_WriteAPDPReg(AP reg 0x01, 0x80011130)
T0A1C 000:694.799 - 0.373ms returns 0
T0A1C 000:694.851 JLINK_CORESIGHT_ReadAPDPReg(AP reg 0x03)
T0A1C 000:695.249   Value=0x20204341
T0A1C 000:695.302 - 0.450ms returns 0
T0A1C 000:695.328 JLINK_CORESIGHT_WriteAPDPReg(AP reg 0x00, 0x80000002)
T0A1C 000:695.690 - 0.362ms returns 0
T0A1C 000:695.755 JLINK_CORESIGHT_WriteAPDPReg(AP reg 0x01, 0x80011140)
T0A1C 000:696.202 - 0.445ms returns 0
T0A1C 000:696.332 JLINK_CORESIGHT_ReadAPDPReg(AP reg 0x03)
T0A1C 000:696.830   Value=0x00000000
T0A1C 000:696.905 - 0.573ms returns 0
T0A1C 000:696.932 JLINK_CORESIGHT_WriteAPDPReg(AP reg 0x00, 0x80000002)
T0A1C 000:697.304 - 0.366ms returns 0
T0A1C 000:697.361 JLINK_CORESIGHT_WriteAPDPReg(AP reg 0x01, 0x80011130)
T0A1C 000:697.825 - 0.463ms returns 0
T0A1C 000:697.875 JLINK_CORESIGHT_ReadAPDPReg(AP reg 0x03)
T0A1C 000:698.350   Value=0x00039F20
T0A1C 000:698.402 - 0.526ms returns 0
T0A1C 000:699.438 JLINK_CORESIGHT_WriteAPDPReg(AP reg 0x00, 0x80000002)
T0A1C 000:699.994 - 0.556ms returns 0
T0A1C 000:700.039 JLINK_CORESIGHT_WriteAPDPReg(AP reg 0x01, 0x80011140)
T0A1C 000:700.436 - 0.397ms returns 0
T0A1C 000:700.481 JLINK_CORESIGHT_ReadAPDPReg(AP reg 0x03)
T0A1C 000:700.859   Value=0x00000002
T0A1C 000:700.909 - 0.427ms returns 0
T0A1C 000:700.933 JLINK_CORESIGHT_WriteAPDPReg(AP reg 0x00, 0x80000002)
T0A1C 000:701.307 - 0.374ms returns 0
T0A1C 000:701.351 JLINK_CORESIGHT_WriteAPDPReg(AP reg 0x01, 0x80011120)
T0A1C 000:701.630 - 0.278ms returns 0
T0A1C 000:701.684 JLINK_CORESIGHT_WriteAPDPReg(AP reg 0x03, 0x39020001)
T0A1C 000:702.051 - 0.366ms returns 0
T0A1C 000:702.110 JLINK_CORESIGHT_WriteAPDPReg(AP reg 0x00, 0x80000002)
T0A1C 000:702.513 - 0.403ms returns 0
T0A1C 000:702.583 JLINK_CORESIGHT_WriteAPDPReg(AP reg 0x01, 0x80011140)
T0A1C 000:703.039 - 0.455ms returns 0
T0A1C 000:703.092 JLINK_CORESIGHT_ReadAPDPReg(AP reg 0x03)
T0A1C 000:703.533   Value=0x00000002
T0A1C 000:703.587 - 0.495ms returns 0
T0A1C 000:703.610 JLINK_CORESIGHT_WriteAPDPReg(AP reg 0x00, 0x80000002)
T0A1C 000:703.929 - 0.319ms returns 0
T0A1C 000:703.976 JLINK_CORESIGHT_WriteAPDPReg(AP reg 0x01, 0x80011120)
T0A1C 000:704.399 - 0.423ms returns 0
T0A1C 000:704.444 JLINK_CORESIGHT_WriteAPDPReg(AP reg 0x03, 0x0003B312)
T0A1C 000:704.790 - 0.346ms returns 0
T0A1C 000:704.834 JLINK_CORESIGHT_WriteAPDPReg(AP reg 0x00, 0x80000002)
T0A1C 000:705.198 - 0.363ms returns 0
T0A1C 000:705.245 JLINK_CORESIGHT_WriteAPDPReg(AP reg 0x01, 0x80011140)
T0A1C 000:705.590 - 0.344ms returns 0
T0A1C 000:705.634 JLINK_CORESIGHT_ReadAPDPReg(AP reg 0x03)
T0A1C 000:706.202   Value=0x00000000
T0A1C 000:706.252 - 0.617ms returns 0
T0A1C 000:706.273 JLINK_CORESIGHT_WriteAPDPReg(AP reg 0x00, 0x80000002)
T0A1C 000:706.644 - 0.371ms returns 0
T0A1C 000:706.705 JLINK_CORESIGHT_WriteAPDPReg(AP reg 0x01, 0x80011130)
T0A1C 000:708.628 - 1.922ms returns 0
T0A1C 000:708.685 JLINK_CORESIGHT_ReadAPDPReg(AP reg 0x03)
T0A1C 000:709.285   Value=0xB90A0081
T0A1C 000:709.338 - 0.652ms returns 0
T0A1C 000:709.360 JLINK_CORESIGHT_WriteAPDPReg(AP reg 0x00, 0x80000002)
T0A1C 000:709.738 - 0.378ms returns 0
T0A1C 000:709.785 JLINK_CORESIGHT_WriteAPDPReg(AP reg 0x01, 0x80011140)
T0A1C 000:710.235 - 0.449ms returns 0
T0A1C 000:710.281 JLINK_CORESIGHT_ReadAPDPReg(AP reg 0x03)
T0A1C 000:710.812   Value=0x00000000
T0A1C 000:710.868 - 0.587ms returns 0
T0A1C 000:710.891 JLINK_CORESIGHT_WriteAPDPReg(AP reg 0x00, 0x80000002)
T0A1C 000:711.255 - 0.363ms returns 0
T0A1C 000:711.302 JLINK_CORESIGHT_WriteAPDPReg(AP reg 0x01, 0x80011130)
T0A1C 000:711.704 - 0.402ms returns 0
T0A1C 000:711.753 JLINK_CORESIGHT_ReadAPDPReg(AP reg 0x03)
T0A1C 000:712.247   Value=0xFFFFFFC0
T0A1C 000:712.304 - 0.551ms returns 0
T0A1C 000:712.328 JLINK_CORESIGHT_WriteAPDPReg(AP reg 0x00, 0x80000002)
T0A1C 000:712.712 - 0.384ms returns 0
T0A1C 000:712.776 JLINK_CORESIGHT_WriteAPDPReg(AP reg 0x01, 0x80011140)
T0A1C 000:713.082 - 0.305ms returns 0
T0A1C 000:713.160 JLINK_CORESIGHT_ReadAPDPReg(AP reg 0x03)
T0A1C 000:713.560   Value=0x00000000
T0A1C 000:713.612 - 0.452ms returns 0
T0A1C 000:713.635 JLINK_CORESIGHT_WriteAPDPReg(AP reg 0x00, 0x80000002)
T0A1C 000:714.123 - 0.487ms returns 0
T0A1C 000:714.180 JLINK_CORESIGHT_WriteAPDPReg(AP reg 0x01, 0x80011130)
T0A1C 000:714.566 - 0.386ms returns 0
T0A1C 000:714.612 JLINK_CORESIGHT_ReadAPDPReg(AP reg 0x03)
T0A1C 000:715.199   Value=0xFFFFFFFF
T0A1C 000:715.251 - 0.639ms returns 0
T0A1C 000:715.272 JLINK_CORESIGHT_WriteAPDPReg(AP reg 0x00, 0x80000002)
T0A1C 000:715.611 - 0.339ms returns 0
T0A1C 000:715.656 JLINK_CORESIGHT_WriteAPDPReg(AP reg 0x01, 0x80011140)
T0A1C 000:716.142 - 0.485ms returns 0
T0A1C 000:716.220 JLINK_CORESIGHT_ReadAPDPReg(AP reg 0x03)
T0A1C 000:716.668   Value=0x00000000
T0A1C 000:716.722 - 0.502ms returns 0
T0A1C 000:716.743 JLINK_CORESIGHT_WriteAPDPReg(AP reg 0x00, 0x80000002)
T0A1C 000:718.646 - 1.901ms returns 0
T0A1C 000:718.738 JLINK_CORESIGHT_WriteAPDPReg(AP reg 0x01, 0x80011130)
T0A1C 000:719.158 - 0.419ms returns 0
T0A1C 000:719.201 JLINK_CORESIGHT_ReadAPDPReg(AP reg 0x03)
T0A1C 000:719.543   Value=0x000385FF
T0A1C 000:719.591 - 0.390ms returns 0
T0A1C 000:719.692 JLINK_CORESIGHT_WriteAPDPReg(AP reg 0x00, 0x80000002)
T0A1C 000:720.165 - 0.473ms returns 0
T0A1C 000:720.210 JLINK_CORESIGHT_WriteAPDPReg(AP reg 0x01, 0x80011140)
T0A1C 000:720.523 - 0.312ms returns 0
T0A1C 000:720.567 JLINK_CORESIGHT_ReadAPDPReg(AP reg 0x03)
T0A1C 000:720.959   Value=0x00000002
T0A1C 000:721.007 - 0.439ms returns 0
T0A1C 000:721.030 JLINK_CORESIGHT_WriteAPDPReg(AP reg 0x00, 0x80000002)
T0A1C 000:721.362 - 0.331ms returns 0
T0A1C 000:721.404 JLINK_CORESIGHT_WriteAPDPReg(AP reg 0x01, 0x80011120)
T0A1C 000:721.673 - 0.269ms returns 0
T0A1C 000:721.720 JLINK_CORESIGHT_WriteAPDPReg(AP reg 0x03, 0x2C010001)
T0A1C 000:722.035 - 0.315ms returns 0
T0A1C 000:722.067 JLINK_CORESIGHT_WriteAPDPReg(AP reg 0x00, 0x80000002)
T0A1C 000:722.409 - 0.341ms returns 0
T0A1C 000:722.451 JLINK_CORESIGHT_WriteAPDPReg(AP reg 0x01, 0x80011140)
T0A1C 000:722.748 - 0.297ms returns 0
T0A1C 000:722.790 JLINK_CORESIGHT_ReadAPDPReg(AP reg 0x03)
T0A1C 000:723.120   Value=0x00000002
T0A1C 000:723.155 - 0.365ms returns 0
T0A1C 000:723.177 JLINK_CORESIGHT_WriteAPDPReg(AP reg 0x00, 0x80000002)
T0A1C 000:723.430 - 0.253ms returns 0
T0A1C 000:723.454 JLINK_CORESIGHT_WriteAPDPReg(AP reg 0x01, 0x80011120)
T0A1C 000:723.765 - 0.310ms returns 0
T0A1C 000:723.795 JLINK_CORESIGHT_WriteAPDPReg(AP reg 0x03, 0x000003D3)
T0A1C 000:724.075 - 0.279ms returns 0
T0A1C 000:724.107 JLINK_CORESIGHT_WriteAPDPReg(AP reg 0x00, 0x80000002)
T0A1C 000:724.440 - 0.333ms returns 0
T0A1C 000:724.478 JLINK_CORESIGHT_WriteAPDPReg(AP reg 0x01, 0x80011140)
T0A1C 000:724.923 - 0.444ms returns 0
T0A1C 000:724.957 JLINK_CORESIGHT_ReadAPDPReg(AP reg 0x03)
T0A1C 000:725.295   Value=0x00000002
T0A1C 000:725.352 - 0.395ms returns 0
T0A1C 000:725.380 JLINK_CORESIGHT_ReadAPDPReg(AP reg 0x03)
T0A1C 000:725.756   Value=0x00000000
T0A1C 000:725.789 - 0.408ms returns 0
T0A1C 000:725.814 JLINK_CORESIGHT_WriteAPDPReg(AP reg 0x00, 0x80000002)
T0A1C 000:726.186 - 0.372ms returns 0
T0A1C 000:726.223 JLINK_CORESIGHT_WriteAPDPReg(AP reg 0x01, 0x80011130)
T0A1C 000:726.516 - 0.293ms returns 0
T0A1C 000:726.558 JLINK_CORESIGHT_ReadAPDPReg(AP reg 0x03)
T0A1C 000:726.954   Value=0x2C020081
T0A1C 000:726.986 - 0.428ms returns 0
T0A1C 000:727.009 JLINK_CORESIGHT_WriteAPDPReg(AP reg 0x00, 0x80000002)
T0A1C 000:727.327 - 0.318ms returns 0
T0A1C 000:727.365 JLINK_CORESIGHT_WriteAPDPReg(AP reg 0x01, 0x80011140)
T0A1C 000:727.700 - 0.334ms returns 0
T0A1C 000:727.745 JLINK_CORESIGHT_ReadAPDPReg(AP reg 0x03)
T0A1C 000:728.096   Value=0x00000000
T0A1C 000:728.140 - 0.395ms returns 0
T0A1C 000:728.166 JLINK_CORESIGHT_WriteAPDPReg(AP reg 0x00, 0x80000002)
T0A1C 000:728.439 - 0.272ms returns 0
T0A1C 000:728.471 JLINK_CORESIGHT_WriteAPDPReg(AP reg 0x01, 0x80011130)
T0A1C 000:728.735 - 0.264ms returns 0
T0A1C 000:728.769 JLINK_CORESIGHT_ReadAPDPReg(AP reg 0x03)
T0A1C 000:729.109   Value=0x0003CE04
T0A1C 000:729.182 - 0.412ms returns 0
T0A1C 000:730.091 JLINK_CORESIGHT_WriteAPDPReg(AP reg 0x00, 0x80000002)
T0A1C 000:730.427 - 0.336ms returns 0
T0A1C 000:730.471 JLINK_CORESIGHT_WriteAPDPReg(AP reg 0x01, 0x80011140)
T0A1C 000:730.741 - 0.270ms returns 0
T0A1C 000:730.772 JLINK_CORESIGHT_ReadAPDPReg(AP reg 0x03)
T0A1C 000:731.130   Value=0x00000002
T0A1C 000:731.161 - 0.389ms returns 0
T0A1C 000:731.183 JLINK_CORESIGHT_WriteAPDPReg(AP reg 0x00, 0x80000002)
T0A1C 000:731.483 - 0.300ms returns 0
T0A1C 000:731.505 JLINK_CORESIGHT_WriteAPDPReg(AP reg 0x01, 0x80011120)
T0A1C 000:731.772 - 0.267ms returns 0
T0A1C 000:731.795 JLINK_CORESIGHT_WriteAPDPReg(AP reg 0x03, 0x73010001)
T0A1C 000:732.180 - 0.385ms returns 0
T0A1C 000:732.232 JLINK_CORESIGHT_WriteAPDPReg(AP reg 0x00, 0x80000002)
T0A1C 000:732.528 - 0.296ms returns 0
T0A1C 000:732.566 JLINK_CORESIGHT_WriteAPDPReg(AP reg 0x01, 0x80011140)
T0A1C 000:732.931 - 0.365ms returns 0
T0A1C 000:732.961 JLINK_CORESIGHT_ReadAPDPReg(AP reg 0x03)
T0A1C 000:733.293   Value=0x00000002
T0A1C 000:733.327 - 0.366ms returns 0
T0A1C 000:733.349 JLINK_CORESIGHT_WriteAPDPReg(AP reg 0x00, 0x80000002)
T0A1C 000:733.683 - 0.333ms returns 0
T0A1C 000:733.747 JLINK_CORESIGHT_WriteAPDPReg(AP reg 0x01, 0x80011120)
T0A1C 000:734.152 - 0.405ms returns 0
T0A1C 000:734.207 JLINK_CORESIGHT_WriteAPDPReg(AP reg 0x03, 0x0000038C)
T0A1C 000:734.556 - 0.349ms returns 0
T0A1C 000:734.612 JLINK_CORESIGHT_WriteAPDPReg(AP reg 0x00, 0x80000002)
T0A1C 000:734.984 - 0.371ms returns 0
T0A1C 000:735.020 JLINK_CORESIGHT_WriteAPDPReg(AP reg 0x01, 0x80011140)
T0A1C 000:735.338 - 0.318ms returns 0
T0A1C 000:735.366 JLINK_CORESIGHT_ReadAPDPReg(AP reg 0x03)
T0A1C 000:735.721   Value=0x00000002
T0A1C 000:735.762 - 0.395ms returns 0
T0A1C 000:735.786 JLINK_CORESIGHT_ReadAPDPReg(AP reg 0x03)
T0A1C 000:736.178   Value=0x00000002
T0A1C 000:736.209 - 0.422ms returns 0
T0A1C 000:736.227 JLINK_CORESIGHT_ReadAPDPReg(AP reg 0x03)
T0A1C 000:736.620   Value=0x00000002
T0A1C 000:736.651 - 0.424ms returns 0
T0A1C 000:736.671 JLINK_CORESIGHT_ReadAPDPReg(AP reg 0x03)
T0A1C 000:737.152   Value=0x00000002
T0A1C 000:737.206 - 0.535ms returns 0
T0A1C 000:737.227 JLINK_CORESIGHT_ReadAPDPReg(AP reg 0x03)
T0A1C 000:737.604   Value=0x00000002
T0A1C 000:737.644 - 0.417ms returns 0
T0A1C 000:737.664 JLINK_CORESIGHT_ReadAPDPReg(AP reg 0x03)
T0A1C 000:738.072   Value=0x00000002
T0A1C 000:738.106 - 0.442ms returns 0
T0A1C 000:738.126 JLINK_CORESIGHT_ReadAPDPReg(AP reg 0x03)
T0A1C 000:738.499   Value=0x00000002
T0A1C 000:738.538 - 0.412ms returns 0
T0A1C 000:738.558 JLINK_CORESIGHT_ReadAPDPReg(AP reg 0x03)
T0A1C 000:738.989   Value=0x00000002
T0A1C 000:739.021 - 0.462ms returns 0
T0A1C 000:739.041 JLINK_CORESIGHT_ReadAPDPReg(AP reg 0x03)
T0A1C 000:739.414   Value=0x00000000
T0A1C 000:739.456 - 0.414ms returns 0
T0A1C 000:739.477 JLINK_CORESIGHT_WriteAPDPReg(AP reg 0x00, 0x80000002)
T0A1C 000:739.912 - 0.435ms returns 0
T0A1C 000:739.935 JLINK_CORESIGHT_WriteAPDPReg(AP reg 0x01, 0x80011130)
T0A1C 000:740.258 - 0.323ms returns 0
T0A1C 000:740.281 JLINK_CORESIGHT_ReadAPDPReg(AP reg 0x03)
T0A1C 000:740.651   Value=0x73020081
T0A1C 000:740.688 - 0.407ms returns 0
T0A1C 000:740.710 JLINK_CORESIGHT_WriteAPDPReg(AP reg 0x00, 0x80000002)
T0A1C 000:741.039 - 0.329ms returns 0
T0A1C 000:741.071 JLINK_CORESIGHT_WriteAPDPReg(AP reg 0x01, 0x80011140)
T0A1C 000:741.414 - 0.344ms returns 0
T0A1C 000:741.439 JLINK_CORESIGHT_ReadAPDPReg(AP reg 0x03)
T0A1C 000:741.777   Value=0x00000000
T0A1C 000:741.807 - 0.368ms returns 0
T0A1C 000:741.828 JLINK_CORESIGHT_WriteAPDPReg(AP reg 0x00, 0x80000002)
T0A1C 000:742.119 - 0.291ms returns 0
T0A1C 000:742.142 JLINK_CORESIGHT_WriteAPDPReg(AP reg 0x01, 0x80011130)
T0A1C 000:742.414 - 0.271ms returns 0
T0A1C 000:742.436 JLINK_CORESIGHT_ReadAPDPReg(AP reg 0x03)
T0A1C 000:742.841   Value=0x00038902
T0A1C 000:742.871 - 0.435ms returns 0
T0A1C 000:742.894 JLINK_CORESIGHT_WriteAPDPReg(AP reg 0x00, 0x80000002)
T0A1C 000:743.162 - 0.268ms returns 0
T0A1C 000:743.185 JLINK_CORESIGHT_WriteAPDPReg(AP reg 0x01, 0x80011140)
T0A1C 000:743.548 - 0.362ms returns 0
T0A1C 000:743.589 JLINK_CORESIGHT_ReadAPDPReg(AP reg 0x03)
T0A1C 000:743.943   Value=0x00000002
T0A1C 000:743.985 - 0.395ms returns 0
T0A1C 000:744.005 JLINK_CORESIGHT_WriteAPDPReg(AP reg 0x00, 0x80000002)
T0A1C 000:744.338 - 0.333ms returns 0
T0A1C 000:744.383 JLINK_CORESIGHT_WriteAPDPReg(AP reg 0x01, 0x80011120)
T0A1C 000:744.662 - 0.280ms returns 0
T0A1C 000:744.687 JLINK_CORESIGHT_WriteAPDPReg(AP reg 0x03, 0x75010001)
T0A1C 000:744.965 - 0.278ms returns 0
T0A1C 000:744.991 JLINK_CORESIGHT_WriteAPDPReg(AP reg 0x00, 0x80000002)
T0A1C 000:745.292 - 0.301ms returns 0
T0A1C 000:745.317 JLINK_CORESIGHT_WriteAPDPReg(AP reg 0x01, 0x80011140)
T0A1C 000:745.647 - 0.329ms returns 0
T0A1C 000:745.676 JLINK_CORESIGHT_ReadAPDPReg(AP reg 0x03)
T0A1C 000:746.141   Value=0x00000002
T0A1C 000:746.176 - 0.499ms returns 0
T0A1C 000:746.196 JLINK_CORESIGHT_WriteAPDPReg(AP reg 0x00, 0x80000002)
T0A1C 000:746.518 - 0.321ms returns 0
T0A1C 000:746.550 JLINK_CORESIGHT_WriteAPDPReg(AP reg 0x01, 0x80011120)
T0A1C 000:746.837 - 0.287ms returns 0
T0A1C 000:746.868 JLINK_CORESIGHT_WriteAPDPReg(AP reg 0x03, 0x0000038A)
T0A1C 000:747.143 - 0.274ms returns 0
T0A1C 000:747.169 JLINK_CORESIGHT_WriteAPDPReg(AP reg 0x00, 0x80000002)
T0A1C 000:747.432 - 0.262ms returns 0
T0A1C 000:747.457 JLINK_CORESIGHT_WriteAPDPReg(AP reg 0x01, 0x80011140)
T0A1C 000:747.702 - 0.245ms returns 0
T0A1C 000:747.726 JLINK_CORESIGHT_ReadAPDPReg(AP reg 0x03)
T0A1C 000:748.100   Value=0x00000002
T0A1C 000:748.132 - 0.406ms returns 0
T0A1C 000:748.153 JLINK_CORESIGHT_ReadAPDPReg(AP reg 0x03)
T0A1C 000:748.474   Value=0x00000002
T0A1C 000:748.507 - 0.354ms returns 0
T0A1C 000:748.529 JLINK_CORESIGHT_ReadAPDPReg(AP reg 0x03)
T0A1C 000:748.995   Value=0x00000002
T0A1C 000:749.045 - 0.515ms returns 0
T0A1C 000:749.066 JLINK_CORESIGHT_ReadAPDPReg(AP reg 0x03)
T0A1C 000:749.507   Value=0x00000002
T0A1C 000:749.545 - 0.479ms returns 0
T0A1C 000:749.566 JLINK_CORESIGHT_ReadAPDPReg(AP reg 0x03)
T0A1C 000:749.989   Value=0x00000002
T0A1C 000:750.021 - 0.455ms returns 0
T0A1C 000:750.044 JLINK_CORESIGHT_ReadAPDPReg(AP reg 0x03)
T0A1C 000:750.578   Value=0x00000000
T0A1C 000:750.609 - 0.565ms returns 0
T0A1C 000:750.629 JLINK_CORESIGHT_WriteAPDPReg(AP reg 0x00, 0x80000002)
T0A1C 000:750.961 - 0.331ms returns 0
T0A1C 000:750.984 JLINK_CORESIGHT_WriteAPDPReg(AP reg 0x01, 0x80011130)
T0A1C 000:751.297 - 0.312ms returns 0
T0A1C 000:751.319 JLINK_CORESIGHT_ReadAPDPReg(AP reg 0x03)
T0A1C 000:751.646   Value=0x75020081
T0A1C 000:751.686 - 0.365ms returns 0
T0A1C 000:751.706 JLINK_CORESIGHT_WriteAPDPReg(AP reg 0x00, 0x80000002)
T0A1C 000:752.106 - 0.400ms returns 0
T0A1C 000:752.131 JLINK_CORESIGHT_WriteAPDPReg(AP reg 0x01, 0x80011140)
T0A1C 000:752.379 - 0.248ms returns 0
T0A1C 000:752.402 JLINK_CORESIGHT_ReadAPDPReg(AP reg 0x03)
T0A1C 000:752.700   Value=0x00000000
T0A1C 000:752.729 - 0.327ms returns 0
T0A1C 000:752.749 JLINK_CORESIGHT_WriteAPDPReg(AP reg 0x00, 0x80000002)
T0A1C 000:753.101 - 0.351ms returns 0
T0A1C 000:753.125 JLINK_CORESIGHT_WriteAPDPReg(AP reg 0x01, 0x80011130)
T0A1C 000:753.471 - 0.345ms returns 0
T0A1C 000:753.496 JLINK_CORESIGHT_ReadAPDPReg(AP reg 0x03)
T0A1C 000:753.934   Value=0x00038702
T0A1C 000:753.964 - 0.468ms returns 0
T0A1C 000:753.993 JLINK_CORESIGHT_WriteAPDPReg(AP reg 0x00, 0x80000002)
T0A1C 000:754.264 - 0.270ms returns 0
T0A1C 000:754.286 JLINK_CORESIGHT_WriteAPDPReg(AP reg 0x01, 0x80011140)
T0A1C 000:754.643 - 0.356ms returns 0
T0A1C 000:755.310 JLINK_CORESIGHT_ReadAPDPReg(AP reg 0x03)
T0A1C 000:755.631   Value=0x00000002
T0A1C 000:755.660 - 0.350ms returns 0
T0A1C 000:755.681 JLINK_CORESIGHT_WriteAPDPReg(AP reg 0x00, 0x80000002)
T0A1C 000:756.039 - 0.358ms returns 0
T0A1C 000:756.062 JLINK_CORESIGHT_WriteAPDPReg(AP reg 0x01, 0x80011120)
T0A1C 000:756.374 - 0.311ms returns 0
T0A1C 000:756.398 JLINK_CORESIGHT_WriteAPDPReg(AP reg 0x03, 0x4F010001)
T0A1C 000:756.686 - 0.288ms returns 0
T0A1C 000:756.713 JLINK_CORESIGHT_WriteAPDPReg(AP reg 0x00, 0x80000002)
T0A1C 000:757.083 - 0.369ms returns 0
T0A1C 000:757.118 JLINK_CORESIGHT_WriteAPDPReg(AP reg 0x01, 0x80011140)
T0A1C 000:757.373 - 0.254ms returns 0
T0A1C 000:757.396 JLINK_CORESIGHT_ReadAPDPReg(AP reg 0x03)
T0A1C 000:757.748   Value=0x00000002
T0A1C 000:757.787 - 0.390ms returns 0
T0A1C 000:757.811 JLINK_CORESIGHT_WriteAPDPReg(AP reg 0x00, 0x80000002)
T0A1C 000:758.209 - 0.397ms returns 0
T0A1C 000:758.261 JLINK_CORESIGHT_WriteAPDPReg(AP reg 0x01, 0x80011120)
T0A1C 000:758.570 - 0.308ms returns 0
T0A1C 000:758.613 JLINK_CORESIGHT_WriteAPDPReg(AP reg 0x03, 0x000003B0)
T0A1C 000:758.992 - 0.379ms returns 0
T0A1C 000:759.034 JLINK_CORESIGHT_WriteAPDPReg(AP reg 0x00, 0x80000002)
T0A1C 000:759.356 - 0.322ms returns 0
T0A1C 000:759.398 JLINK_CORESIGHT_WriteAPDPReg(AP reg 0x01, 0x80011140)
T0A1C 000:759.693 - 0.295ms returns 0
T0A1C 000:759.735 JLINK_CORESIGHT_ReadAPDPReg(AP reg 0x03)
T0A1C 000:760.182   Value=0x00000002
T0A1C 000:760.231 - 0.495ms returns 0
T0A1C 000:760.251 JLINK_CORESIGHT_ReadAPDPReg(AP reg 0x03)
T0A1C 000:760.620   Value=0x00000002
T0A1C 000:760.675 - 0.424ms returns 0
T0A1C 000:760.698 JLINK_CORESIGHT_ReadAPDPReg(AP reg 0x03)
T0A1C 000:761.064   Value=0x00000002
T0A1C 000:761.105 - 0.406ms returns 0
T0A1C 000:761.128 JLINK_CORESIGHT_ReadAPDPReg(AP reg 0x03)
T0A1C 000:761.684   Value=0x00000002
T0A1C 000:761.724 - 0.596ms returns 0
T0A1C 000:761.744 JLINK_CORESIGHT_ReadAPDPReg(AP reg 0x03)
T0A1C 000:762.240   Value=0x00000002
T0A1C 000:762.300 - 0.556ms returns 0
T0A1C 000:762.322 JLINK_CORESIGHT_ReadAPDPReg(AP reg 0x03)
T0A1C 000:762.771   Value=0x00000002
T0A1C 000:762.836 - 0.513ms returns 0
T0A1C 000:762.861 JLINK_CORESIGHT_ReadAPDPReg(AP reg 0x03)
T0A1C 000:763.182   Value=0x00000000
T0A1C 000:763.233 - 0.371ms returns 0
T0A1C 000:763.253 JLINK_CORESIGHT_WriteAPDPReg(AP reg 0x00, 0x80000002)
T0A1C 000:763.589 - 0.336ms returns 0
T0A1C 000:763.630 JLINK_CORESIGHT_WriteAPDPReg(AP reg 0x01, 0x80011130)
T0A1C 000:764.017 - 0.386ms returns 0
T0A1C 000:764.059 JLINK_CORESIGHT_ReadAPDPReg(AP reg 0x03)
T0A1C 000:764.392   Value=0x4F0B0081
T0A1C 000:764.452 - 0.393ms returns 0
T0A1C 000:764.472 JLINK_CORESIGHT_WriteAPDPReg(AP reg 0x00, 0x80000002)
T0A1C 000:764.805 - 0.332ms returns 0
T0A1C 000:764.830 JLINK_CORESIGHT_WriteAPDPReg(AP reg 0x01, 0x80011140)
T0A1C 000:765.119 - 0.289ms returns 0
T0A1C 000:765.143 JLINK_CORESIGHT_ReadAPDPReg(AP reg 0x03)
T0A1C 000:765.457   Value=0x00000000
T0A1C 000:765.486 - 0.343ms returns 0
T0A1C 000:765.505 JLINK_CORESIGHT_WriteAPDPReg(AP reg 0x00, 0x80000002)
T0A1C 000:765.748 - 0.243ms returns 0
T0A1C 000:765.770 JLINK_CORESIGHT_WriteAPDPReg(AP reg 0x01, 0x80011130)
T0A1C 000:766.255 - 0.483ms returns 0
T0A1C 000:766.371 JLINK_CORESIGHT_ReadAPDPReg(AP reg 0x03)
T0A1C 000:766.838   Value=0x40000000
T0A1C 000:766.959 - 0.589ms returns 0
T0A1C 000:766.982 JLINK_CORESIGHT_WriteAPDPReg(AP reg 0x00, 0x80000002)
T0A1C 000:767.223 - 0.241ms returns 0
T0A1C 000:767.264 JLINK_CORESIGHT_WriteAPDPReg(AP reg 0x01, 0x80011140)
T0A1C 000:767.557 - 0.293ms returns 0
T0A1C 000:767.587 JLINK_CORESIGHT_ReadAPDPReg(AP reg 0x03)
T0A1C 000:767.953   Value=0x00000000
T0A1C 000:768.012 - 0.424ms returns 0
T0A1C 000:768.036 JLINK_CORESIGHT_WriteAPDPReg(AP reg 0x00, 0x80000002)
T0A1C 000:768.397 - 0.362ms returns 0
T0A1C 000:768.424 JLINK_CORESIGHT_WriteAPDPReg(AP reg 0x01, 0x80011130)
T0A1C 000:768.793 - 0.369ms returns 0
T0A1C 000:768.815 JLINK_CORESIGHT_ReadAPDPReg(AP reg 0x03)
T0A1C 000:769.185   Value=0x00000000
T0A1C 000:769.214 - 0.399ms returns 0
T0A1C 000:769.233 JLINK_CORESIGHT_WriteAPDPReg(AP reg 0x00, 0x80000002)
T0A1C 000:769.504 - 0.270ms returns 0
T0A1C 000:769.527 JLINK_CORESIGHT_WriteAPDPReg(AP reg 0x01, 0x80011140)
T0A1C 000:769.838 - 0.310ms returns 0
T0A1C 000:769.860 JLINK_CORESIGHT_ReadAPDPReg(AP reg 0x03)
T0A1C 000:770.287   Value=0x00000000
T0A1C 000:770.317 - 0.457ms returns 0
T0A1C 000:770.337 JLINK_CORESIGHT_WriteAPDPReg(AP reg 0x00, 0x80000002)
T0A1C 000:770.611 - 0.273ms returns 0
T0A1C 000:770.633 JLINK_CORESIGHT_WriteAPDPReg(AP reg 0x01, 0x80011130)
T0A1C 000:771.019 - 0.386ms returns 0
T0A1C 000:771.042 JLINK_CORESIGHT_ReadAPDPReg(AP reg 0x03)
T0A1C 000:771.457   Value=0x03660000
T0A1C 000:771.488 - 0.446ms returns 0
T0A1C 000:771.588 JLINK_CORESIGHT_ReadAPDPReg(DP reg 0x01)
T0A1C 000:771.935   Value=0xF0000F40
T0A1C 000:771.965 - 0.377ms returns 0
T0A1C 000:771.985 JLINK_CORESIGHT_WriteAPDPReg(DP reg 0x01, 0xA0000F40)
T0A1C 000:772.251 - 0.266ms returns 0
T0A1C 000:772.274 JLINK_CORESIGHT_ReadAPDPReg(DP reg 0x01)
T0A1C 000:772.540   Value=0x00000F40
T0A1C 000:772.568 - 0.294ms returns 0
T0A1C 000:772.588 JLINK_ClrRESET()
T0A1C 000:772.994 - 0.405ms 
T0A1C 000:878.156 JLINK_Close()
T0A1C 000:890.682 - 12.524ms
T0A1C 000:890.756   
T0A1C 000:890.780   Closed
